//comment (incomplete) title-B.sym
net #() net0 (.p(x_nn_0),.n(x_nn_1));
place #(.x(47300),.y(46600)) 47300:46600 (.port(x_nn_0));
place #(.x(47300),.y(47300)) 47300:47300 (.port(x_nn_1));
port #(.basename(input-2.sym),.net(INPUT:1)) INPUT:1 (.int(x_cn_2),.ext(INPUT:1));
place #(.x(44900),.y(47300)) 44900:47300 (.port(x_cn_2));
port #(.basename(output-2.sym),.net(nout)) nout (.int(x_cn_3),.ext(nout));
place #(.x(53500),.y(47300)) 53500:47300 (.port(x_cn_3));
RESISTOR #(.basename(resistor-2.sym),.value(4k)) R1 (.1(x_cn_4),.2(x_cn_5));
place #(.x(45500),.y(47300)) 45500:47300 (.port(x_cn_4));
place #(.x(46400),.y(47300)) 46400:47300 (.port(x_cn_5));
net #() net1 (.p(x_cn_4),.n(x_cn_2));
net #() net2 (.p(x_nn_6),.n(x_nn_7));
place #(.x(47300),.y(45200)) 47300:45200 (.port(x_nn_6));
place #(.x(47300),.y(45700)) 47300:45700 (.port(x_nn_7));
port #(.basename(passive-1.sym),.net(PASSIVE:1)) PASSIVE:1 (.int(x_nn_6),.ext(PASSIVE:1));
CAPACITOR #(.basename(capacitor-1.sym),.description(capacitor),.numslots(0),.symversion(0.1),.value(1u)) C1 (.1(x_nn_7),.2(x_nn_0));
net #() teetop (.p(x_cn_5),.n(x_cn_3));
net #() extranet4 (.p(x_cn_5),.n(x_nn_1));
endmodule // rc.sch

rc.sch #() sch1 (.INPUT:1(n1),.nout(n2),.PASSIVE:1(n0));
dc 
#           v(n0)      v(n1)      v(n2)      r(sch1.R1.r) c(sch1.C1.c)
 0.         29.104p    1.         1.         4.K        1.u       
#Time       v(n0)      v(n1)      v(n2)      v(sch1.C1.c) v(sch1.R1.r)
 0.         0.         0.         0.         0.         0.        
 100.E-6    8.079E-12  1.         0.024691  -0.024691   0.97531   
 200.E-6    6.083E-12  1.         0.048772  -0.048772   0.95123   
 300.E-6   -8.978E-12  1.         0.07226   -0.07226    0.92774   
 400.E-6   -8.038E-12  1.         0.095167  -0.095167   0.90483   
 500.E-6    8.868E-12  1.         0.11751   -0.11751    0.88249   
 600.E-6    12.6E-12   1.         0.1393    -0.1393     0.8607    
 700.E-6    3.128E-12  1.         0.16055   -0.16055    0.83945   
 800.E-6   -5.034E-12  1.         0.18128   -0.18128    0.81872   
 900.E-6    17.19E-12  1.         0.20149   -0.20149    0.79851   
 0.001     -2.998E-12  1.         0.22121   -0.22121    0.77879   
 0.0011    -7.416E-12  1.         0.24044   -0.24044    0.75956   
 0.0012     3.906E-12  1.         0.25919   -0.25919    0.74081   
 0.0013     16.39E-12  1.         0.27748   -0.27748    0.72252   
 0.0014     890.E-15   1.         0.29532   -0.29532    0.70468   
 0.0015     1.048E-12  1.         0.31272   -0.31272    0.68728   
 0.0016     2.279E-12  1.         0.32969   -0.32969    0.67031   
 0.0017     4.558E-12  1.         0.34624   -0.34624    0.65376   
 0.0018    -6.693E-12  1.         0.36239   -0.36239    0.63761   
 0.0019    -2.395E-12  1.         0.37813   -0.37813    0.62187   
 0.002      2.874E-12  1.         0.39348   -0.39348    0.60652   
 0.0021    -5.461E-12  1.         0.40846   -0.40846    0.59154   
 0.0022    -12.87E-12  1.         0.42307   -0.42307    0.57693   
 0.0023     9.723E-12  1.         0.43731   -0.43731    0.56269   
 0.0024    -10.46E-12  1.         0.45121   -0.45121    0.54879   
 0.0025    -15.23E-12  1.         0.46476   -0.46476    0.53524   
 0.0026     9.938E-12  1.         0.47797   -0.47797    0.52203   
 0.0027    -7.734E-12  1.         0.49086   -0.49086    0.50914   
 0.0028    -10.06E-12  1.         0.50343   -0.50343    0.49657   
 0.0029    -11.61E-12  1.         0.51569   -0.51569    0.48431   
 0.003     -26.95E-12  1.         0.52765   -0.52765    0.47235   
 0.0031    -27.E-12    1.         0.53931   -0.53931    0.46069   
 0.0032    -26.34E-12  1.         0.55069   -0.55069    0.44931   
 0.0033    -24.97E-12  1.         0.56178   -0.56178    0.43822   
 0.0034    -8.362E-12  1.         0.5726    -0.5726     0.4274    
 0.0035    -20.19E-12  1.         0.58316   -0.58316    0.41684   
 0.0036    -31.37E-12  1.         0.59345   -0.59345    0.40655   
 0.0037    -12.81E-12  1.         0.60349   -0.60349    0.39651   
 0.0038    -22.74E-12  1.         0.61328   -0.61328    0.38672   
 0.0039    -2.95E-12   1.         0.62283   -0.62283    0.37717   
 0.004     -11.68E-12  1.         0.63214   -0.63214    0.36786   
 0.0041    -5.284E-12  1.         0.64122   -0.64122    0.35878   
 0.0042    -12.88E-12  1.         0.65008   -0.65008    0.34992   
 0.0043    -19.93E-12  1.         0.65872   -0.65872    0.34128   
 0.0044    -26.44E-12  1.         0.66715   -0.66715    0.33285   
 0.0045    -17.88E-12  1.         0.67537   -0.67537    0.32463   
 0.0046     5.734E-12  1.         0.68338   -0.68338    0.31662   
 0.0047     741.E-15   1.         0.6912    -0.6912     0.3088    
 0.0048    -18.32E-12  1.         0.69882   -0.69882    0.30118   
 0.0049    -7.807E-12  1.         0.70626   -0.70626    0.29374   
 0.005     -11.39E-12  1.         0.71351   -0.71351    0.28649   
 0.0051     33.E-15    1.         0.72059   -0.72059    0.27941   
 0.0052    -17.22E-12  1.         0.72749   -0.72749    0.27251   
 0.0053    -19.49E-12  1.         0.73422   -0.73422    0.26578   
 0.0054    -6.787E-12  1.         0.74078   -0.74078    0.25922   
 0.0055    -22.79E-12  1.         0.74718   -0.74718    0.25282   
 0.0056    -23.84E-12  1.         0.75342   -0.75342    0.24658   
 0.0057    -9.96E-12   1.         0.75951   -0.75951    0.24049   
 0.0058    -10.25E-12  1.         0.76545   -0.76545    0.23455   
 0.0059    -10.18E-12  1.         0.77124   -0.77124    0.22876   
 0.006     -9.748E-12  1.         0.77689   -0.77689    0.22311   
 0.0061    -8.968E-12  1.         0.7824    -0.7824     0.2176    
 0.0062    -7.849E-12  1.         0.78777   -0.78777    0.21223   
 0.0063    -6.397E-12  1.         0.79301   -0.79301    0.20699   
 0.0064    -4.623E-12  1.         0.79812   -0.79812    0.20188   
 0.0065    -17.08E-12  1.         0.8031    -0.8031     0.1969    
 0.0066    -134.E-15   1.         0.80797   -0.80797    0.19203   
 0.0067     2.564E-12  1.         0.81271   -0.81271    0.18729   
 0.0068    -8.997E-12  1.         0.81733   -0.81733    0.18267   
 0.0069     8.831E-12  1.         0.82184   -0.82184    0.17816   
 0.007      12.39E-12  1.         0.82624   -0.82624    0.17376   
 0.0071     1.66E-12   1.         0.83053   -0.83053    0.16947   
 0.0072     5.751E-12  1.         0.83472   -0.83472    0.16528   
 0.0073    -4.452E-12  1.         0.8388    -0.8388     0.1612    
 0.0074     14.7E-12   1.         0.84278   -0.84278    0.15722   
 0.0075     4.997E-12  1.         0.84666   -0.84666    0.15334   
 0.0076     10.08E-12  1.         0.85045   -0.85045    0.14955   
 0.0077     852.E-15   1.         0.85414   -0.85414    0.14586   
 0.0078     6.4E-12    1.         0.85774   -0.85774    0.14226   
 0.0079    -16.93E-12  1.         0.86125   -0.86125    0.13875   
 0.008     -10.95E-12  1.         0.86468   -0.86468    0.13532   
 0.0081    -19.3E-12   1.         0.86802   -0.86802    0.13198   
 0.0082     1.658E-12  1.         0.87128   -0.87128    0.12872   
 0.0083    -6.288E-12  1.         0.87446   -0.87446    0.12554   
 0.0084    -14.04E-12  1.         0.87756   -0.87756    0.12244   
 0.0085     7.508E-12  1.         0.88058   -0.88058    0.11942   
 0.0086     137.E-15   1.         0.88353   -0.88353    0.11647   
 0.0087     7.499E-12  1.         0.8864    -0.8864     0.1136    
 0.0088    -14.07E-12  1.         0.88921   -0.88921    0.11079   
 0.0089    -6.352E-12  1.         0.89195   -0.89195    0.10805   
 0.009     -13.02E-12  1.         0.89461   -0.89461    0.10539   
 0.0091    -19.53E-12  1.         0.89722   -0.89722    0.10278   
 0.0092    -25.87E-12  1.         0.89975   -0.89975    0.10025   
 0.0093    -17.51E-12  1.         0.90223   -0.90223    0.097772  
 0.0094    -8.991E-12  1.         0.90464   -0.90464    0.095358  
 0.0095    -14.88E-12  1.         0.907     -0.907      0.093003  
 0.0096    -20.62E-12  1.         0.90929   -0.90929    0.090707  
 0.0097    -26.22E-12  1.         0.91153   -0.91153    0.088467  
 0.0098    -17.13E-12  1.         0.91372   -0.91372    0.086283  
 0.0099    -22.45E-12  1.         0.91585   -0.91585    0.084152  
 0.01      -27.65E-12  1.         0.91793   -0.91793    0.082074  
 0.0101    -19.01E-12  2.2198E-9  0.89554   -0.89554   -0.89554   
 0.0102    -18.99E-12  2.1652E-9  0.87369   -0.87369   -0.87369   
 0.0103    -18.97E-12  2.1113E-9  0.85212   -0.85212   -0.85212   
 0.0104    -18.95E-12  2.0588E-9  0.83108   -0.83108   -0.83108   
 0.0105    -18.93E-12  2.0075E-9  0.81056   -0.81056   -0.81056   
 0.0106    -18.91E-12  1.9575E-9  0.79055   -0.79055   -0.79055   
 0.0107    -18.89E-12  1.9087E-9  0.77103   -0.77103   -0.77103   
 0.0108    -18.87E-12  1.8611E-9  0.75199   -0.75199   -0.75199   
 0.0109    -18.85E-12  1.8147E-9  0.73342   -0.73342   -0.73342   
 0.011     -18.84E-12  1.7694E-9  0.71531   -0.71531   -0.71531   
 0.0111    -18.82E-12  1.7253E-9  0.69765   -0.69765   -0.69765   
 0.0112    -18.8E-12   1.6823E-9  0.68043   -0.68043   -0.68043   
 0.0113    -18.79E-12  1.6403E-9  0.66363   -0.66363   -0.66363   
 0.0114    -18.77E-12  1.5993E-9  0.64724   -0.64724   -0.64724   
 0.0115    -18.76E-12  1.5594E-9  0.63126   -0.63126   -0.63126   
 0.0116    -18.74E-12  1.5204E-9  0.61567   -0.61567   -0.61567   
 0.0117    -18.73E-12  1.4825E-9  0.60047   -0.60047   -0.60047   
 0.0118    -18.71E-12  1.4454E-9  0.58564   -0.58564   -0.58564   
 0.0119    -18.7E-12   1.4093E-9  0.57118   -0.57118   -0.57118   
 0.012     -18.68E-12  1.374E-9   0.55708   -0.55708   -0.55708   
 0.0121    -18.67E-12  1.3396E-9  0.54332   -0.54332   -0.54332   
 0.0122    -18.66E-12  1.3061E-9  0.52991   -0.52991   -0.52991   
 0.0123    -18.65E-12  1.2734E-9  0.51683   -0.51683   -0.51683   
 0.0124    -18.63E-12  1.2415E-9  0.50406   -0.50406   -0.50406   
 0.0125    -18.62E-12  1.2104E-9  0.49162   -0.49162   -0.49162   
 0.0126    -18.61E-12  1.1801E-9  0.47948   -0.47948   -0.47948   
 0.0127    -18.6E-12   1.1505E-9  0.46764   -0.46764   -0.46764   
 0.0128    -18.59E-12  1.1216E-9  0.45609   -0.45609   -0.45609   
 0.0129    -18.58E-12  1.0935E-9  0.44483   -0.44483   -0.44483   
 0.013     -18.57E-12  1.0661E-9  0.43385   -0.43385   -0.43385   
 0.0131    -18.56E-12  1.0393E-9  0.42314   -0.42314   -0.42314   
 0.0132    -18.55E-12  1.0132E-9  0.41269   -0.41269   -0.41269   
 0.0133    -18.54E-12  987.7E-12  0.4025    -0.4025    -0.4025    
 0.0134    -18.53E-12  962.9E-12  0.39256   -0.39256   -0.39256   
 0.0135    -18.52E-12  938.7E-12  0.38287   -0.38287   -0.38287   
 0.0136    -18.51E-12  915.E-12   0.37341   -0.37341   -0.37341   
 0.0137    -18.5E-12   892.E-12   0.36419   -0.36419   -0.36419   
 0.0138    -18.49E-12  869.5E-12  0.3552    -0.3552    -0.3552    
 0.0139    -18.48E-12  847.6E-12  0.34643   -0.34643   -0.34643   
 0.014     -18.47E-12  826.2E-12  0.33788   -0.33788   -0.33788   
 0.0141    -18.46E-12  805.4E-12  0.32953   -0.32953   -0.32953   
 0.0142    -18.46E-12  785.E-12   0.3214    -0.3214    -0.3214    
 0.0143    -18.45E-12  765.2E-12  0.31346   -0.31346   -0.31346   
 0.0144    -18.44E-12  745.9E-12  0.30572   -0.30572   -0.30572   
 0.0145    -18.44E-12  727.E-12   0.29817   -0.29817   -0.29817   
 0.0146    -18.43E-12  708.6E-12  0.29081   -0.29081   -0.29081   
 0.0147    -18.42E-12  690.7E-12  0.28363   -0.28363   -0.28363   
 0.0148    -18.41E-12  673.2E-12  0.27663   -0.27663   -0.27663   
 0.0149    -18.41E-12  656.1E-12  0.2698    -0.2698    -0.2698    
 0.015     -18.4E-12   639.4E-12  0.26314   -0.26314   -0.26314   
 0.0151    -18.39E-12  623.2E-12  0.25664   -0.25664   -0.25664   
 0.0152    -18.39E-12  607.4E-12  0.2503    -0.2503    -0.2503    
 0.0153    -18.38E-12  591.9E-12  0.24412   -0.24412   -0.24412   
 0.0154    -18.38E-12  576.9E-12  0.23809   -0.23809   -0.23809   
 0.0155    -18.37E-12  562.2E-12  0.23221   -0.23221   -0.23221   
 0.0156    -18.37E-12  547.8E-12  0.22648   -0.22648   -0.22648   
 0.0157    -18.36E-12  533.9E-12  0.22089   -0.22089   -0.22089   
 0.0158    -18.36E-12  520.2E-12  0.21543   -0.21543   -0.21543   
 0.0159    -18.35E-12  506.9E-12  0.21012   -0.21012   -0.21012   
 0.016     -18.35E-12  494.E-12   0.20493   -0.20493   -0.20493   
 0.0161    -18.34E-12  481.3E-12  0.19987   -0.19987   -0.19987   
 0.0162    -18.34E-12  469.E-12   0.19493   -0.19493   -0.19493   
 0.0163    -18.33E-12  457.E-12   0.19012   -0.19012   -0.19012   
 0.0164    -18.33E-12  445.2E-12  0.18543   -0.18543   -0.18543   
 0.0165    -18.32E-12  433.8E-12  0.18085   -0.18085   -0.18085   
 0.0166    -18.32E-12  422.6E-12  0.17638   -0.17638   -0.17638   
 0.0167    -18.31E-12  411.8E-12  0.17203   -0.17203   -0.17203   
 0.0168    -18.31E-12  401.1E-12  0.16778   -0.16778   -0.16778   
 0.0169    -18.31E-12  390.8E-12  0.16364   -0.16364   -0.16364   
 0.017     -18.3E-12   380.7E-12  0.1596    -0.1596    -0.1596    
 0.0171    -18.3E-12   370.8E-12  0.15566   -0.15566   -0.15566   
 0.0172    -18.29E-12  361.2E-12  0.15181   -0.15181   -0.15181   
 0.0173    -18.29E-12  351.9E-12  0.14806   -0.14806   -0.14806   
 0.0174    -18.29E-12  342.7E-12  0.14441   -0.14441   -0.14441   
 0.0175    -18.28E-12  333.8E-12  0.14084   -0.14084   -0.14084   
 0.0176    -18.28E-12  325.1E-12  0.13736   -0.13736   -0.13736   
 0.0177    -18.28E-12  316.7E-12  0.13397   -0.13397   -0.13397   
 0.0178    -18.27E-12  308.4E-12  0.13066   -0.13066   -0.13066   
 0.0179    -18.27E-12  300.3E-12  0.12744   -0.12744   -0.12744   
 0.018     -18.27E-12  292.5E-12  0.12429   -0.12429   -0.12429   
 0.0181    -18.27E-12  284.8E-12  0.12122   -0.12122   -0.12122   
 0.0182    -18.26E-12  277.3E-12  0.11823   -0.11823   -0.11823   
 0.0183    -18.26E-12  270.E-12   0.11531   -0.11531   -0.11531   
 0.0184    -18.26E-12  262.9E-12  0.11246   -0.11246   -0.11246   
 0.0185    -18.25E-12  256.E-12   0.10969   -0.10969   -0.10969   
 0.0186    -18.25E-12  249.2E-12  0.10698   -0.10698   -0.10698   
 0.0187    -18.25E-12  242.6E-12  0.10434   -0.10434   -0.10434   
 0.0188    -18.25E-12  236.2E-12  0.10176   -0.10176   -0.10176   
 0.0189    -18.24E-12  229.9E-12  0.099248  -0.099248  -0.099248  
 0.019     -18.24E-12  223.8E-12  0.096797  -0.096797  -0.096797  
 0.0191    -18.24E-12  217.8E-12  0.094407  -0.094407  -0.094407  
 0.0192    -18.24E-12  212.E-12   0.092076  -0.092076  -0.092076  
 0.0193    -18.24E-12  206.3E-12  0.089803  -0.089803  -0.089803  
 0.0194    -18.23E-12  200.7E-12  0.087585  -0.087585  -0.087585  
 0.0195    -18.23E-12  195.3E-12  0.085423  -0.085423  -0.085423  
 0.0196    -18.23E-12  190.1E-12  0.083313  -0.083313  -0.083313  
 0.0197    -18.23E-12  184.9E-12  0.081256  -0.081256  -0.081256  
 0.0198    -18.23E-12  179.9E-12  0.07925   -0.07925   -0.07925   
 0.0199    -18.22E-12  175.E-12   0.077293  -0.077293  -0.077293  
 0.02      -18.22E-12  170.2E-12  0.075385  -0.075385  -0.075385  
vn2= 0.2212089
