//comment (incomplete) title-B.sym
net #() net0 (.p(x_nn_0),.n(x_nn_1));
place #(.x(47300),.y(46600)) 47300:46600 (.port(x_nn_0));
place #(.x(47300),.y(47300)) 47300:47300 (.port(x_nn_1));
port #(.basename(input-2.sym),.net(INPUT:1)) INPUT:1 (.int(x_cn_2),.ext(INPUT:1));
place #(.x(44900),.y(47300)) 44900:47300 (.port(x_cn_2));
port #(.basename(output-2.sym),.net(nout)) nout (.int(x_cn_3),.ext(nout));
place #(.x(53500),.y(47300)) 53500:47300 (.port(x_cn_3));
RESISTOR #(.basename(resistor-2.sym),.value(4k)) R1 (.1(x_cn_4),.2(x_cn_5));
place #(.x(45500),.y(47300)) 45500:47300 (.port(x_cn_4));
place #(.x(46400),.y(47300)) 46400:47300 (.port(x_cn_5));
net #() net1 (.p(x_cn_4),.n(x_cn_2));
net #() net2 (.p(x_nn_6),.n(x_nn_7));
place #(.x(47300),.y(45200)) 47300:45200 (.port(x_nn_6));
place #(.x(47300),.y(45700)) 47300:45700 (.port(x_nn_7));
port #(.basename(passive-1.sym),.net(PASSIVE:1)) PASSIVE:1 (.int(x_nn_6),.ext(PASSIVE:1));
CAPACITOR #(.basename(capacitor-1.sym),.description(capacitor),.numslots(0),.symversion(0.1),.value(1u)) C1 (.1(x_nn_7),.2(x_nn_0));
net #() teetop (.p(x_cn_5),.n(x_cn_3));
net #() extranet4 (.p(x_cn_5),.n(x_nn_1));
endmodule // rc.sch

rc.sch #() sch1 (.INPUT:1(n1),.nout(n2),.PASSIVE:1(n0));
#           v(n0)      v(n1)      v(n2)      r(sch1.R1.r) c(sch1.C1.c)
 0.         0.         0.         0.         4.K        1.u       
#Time       v(n0)      v(n1)      v(n2)      v(sch1.C1.c) v(sch1.R1.r)
 0.         0.         0.         0.         0.         0.        
 0.001      29.73E-12  1.         0.11498   -0.11498    0.88502   
 0.002     -9.111E-12  1.         0.31097   -0.31097    0.68903   
 0.003     -13.55E-12  1.         0.46408   -0.46408    0.53592   
 0.004     -20.24E-12  1.         0.58318   -0.58318    0.41682   
 0.005     -18.98E-12  1.         0.6758    -0.6758     0.3242    
 0.006     -9.91E-12   1.         0.74785   -0.74785    0.25215   
 0.007     -4.474E-12  1.         0.80388   -0.80388    0.19612   
 0.008     -26.12E-12  1.         0.84746   -0.84746    0.15254   
 0.009     -23.55E-12  1.         0.88136   -0.88136    0.11864   
 0.01      -16.7E-12   1.         0.90772   -0.90772    0.092275  
 0.011     -24.31E-12  1.         0.92823   -0.92823    0.07177   
 0.012     -694.E-15   1.8049E-9  0.72224   -0.72224   -0.72224   
 0.013     -540.E-15   1.4038E-9  0.56174   -0.56174   -0.56174   
 0.014     -420.E-15   1.0918E-9  0.43691   -0.43691   -0.43691   
 0.015     -326.E-15   849.2E-12  0.33982   -0.33982   -0.33982   
 0.016     -254.E-15   660.5E-12  0.2643    -0.2643    -0.2643    
 0.017     -197.E-15   513.7E-12  0.20557   -0.20557   -0.20557   
 0.018     -154.E-15   399.6E-12  0.15989   -0.15989   -0.15989   
 0.019     -119.E-15   310.8E-12  0.12436   -0.12436   -0.12436   
 0.02      -93.E-15    241.7E-12  0.096721  -0.096721  -0.096721  
vn2= 0.1149839
