//comment (incomplete) title-B.sym
net #() net0 (.p(x_nn_0),.n(x_nn_1));
place #(.x(47300),.y(46600)) 47300:46600 (.port(x_nn_0));
place #(.x(47300),.y(47300)) 47300:47300 (.port(x_nn_1));
port #(.basename(input-2.sym),.net(INPUT:1)) INPUT:1 (.int(x_cn_2),.ext(INPUT:1));
place #(.x(44900),.y(47300)) 44900:47300 (.port(x_cn_2));
port #(.basename(output-2.sym),.net(nout)) nout (.int(x_cn_3),.ext(nout));
place #(.x(53500),.y(47300)) 53500:47300 (.port(x_cn_3));
RESISTOR #(.basename(resistor-2.sym),.value(4k)) R1 (.1(x_cn_4),.2(x_cn_5));
place #(.x(45500),.y(47300)) 45500:47300 (.port(x_cn_4));
place #(.x(46400),.y(47300)) 46400:47300 (.port(x_cn_5));
net #() net1 (.p(x_cn_4),.n(x_cn_2));
net #() net2 (.p(x_nn_6),.n(x_nn_7));
place #(.x(47300),.y(45200)) 47300:45200 (.port(x_nn_6));
place #(.x(47300),.y(45700)) 47300:45700 (.port(x_nn_7));
port #(.basename(passive-1.sym),.net(PASSIVE:1)) PASSIVE:1 (.int(x_nn_6),.ext(PASSIVE:1));
CAPACITOR #(.basename(capacitor-1.sym),.description(capacitor),.numslots(0),.symversion(0.1),.value(1u)) C1 (.1(x_nn_7),.2(x_nn_0));
net #() teetop (.p(x_cn_5),.n(x_cn_3));
net #() extranet4 (.p(x_cn_5),.n(x_nn_1));
endmodule // rc.sch

rc.sch #() sch1 (.INPUT:1(n1),.nout(n2),.PASSIVE:1(n0));
#           v(n0)      v(n1)      v(n2)      r(sch1.R1.r) c(sch1.C1.c)
 0.         0.         0.         0.         4.K        1.u       
#Time       v(n0)      v(n1)      v(n2)      v(sch1.C1.c) v(sch1.R1.r)
 0.         0.         0.         0.         0.         0.        
 1.E-6      40.E-15    0.001      249.94E-9 -249.94E-9  999.75E-6 
 2.E-6      108.E-15   0.002      624.83E-9 -624.83E-9  0.0019994 
 3.E-6      176.E-15   0.003      1.2496E-6 -1.2496E-6  0.0029988 
 4.E-6      214.E-15   0.004      2.1242E-6 -2.1242E-6  0.0039979 
 5.E-6      309.E-15   0.005      3.2485E-6 -3.2485E-6  0.0049968 
 28.75E-6   1.822E-12  0.02875    103.13E-6 -103.13E-6  0.028647  
 64.375E-6  2.015E-12  0.064375   515.07E-6 -515.07E-6  0.06386   
 100.E-6    6.429E-12  0.1        0.0012392 -0.0012392  0.098761  
 200.E-6    10.41E-12  0.2        0.0049123 -0.0049123  0.19509   
 300.E-6    17.54E-12  0.3        0.010964  -0.010964   0.28904   
 400.E-6    18.88E-12  0.4        0.019335  -0.019335   0.38066   
 500.E-6    25.46E-12  0.5        0.029969  -0.029969   0.47003   
 600.E-6    26.54E-12  0.6        0.042809  -0.042809   0.55719   
 700.E-6    36.78E-12  0.7        0.057801  -0.057801   0.6422    
 800.E-6    34.51E-12  0.8        0.074893  -0.074893   0.72511   
 900.E-6    41.66E-12  0.9        0.094031  -0.094031   0.80597   
 0.001      43.83E-12  1.         0.11517   -0.11517    0.88483   
 0.0011     47.42E-12  1.         0.13701   -0.13701    0.86299   
 0.0012     52.35E-12  1.         0.15832   -0.15832    0.84168   
 0.0013     58.61E-12  1.         0.1791    -0.1791     0.8209    
 0.0014     51.59E-12  1.         0.19937   -0.19937    0.80063   
 0.0015     45.82E-12  1.         0.21914   -0.21914    0.78086   
 0.0016     55.83E-12  1.         0.23842   -0.23842    0.76158   
 0.0017     37.92E-12  1.         0.25723   -0.25723    0.74277   
 0.0018     64.83E-12  1.         0.27557   -0.27557    0.72443   
 0.0019     49.22E-12  1.         0.29345   -0.29345    0.70655   
 0.002      63.81E-12  1.         0.3109    -0.3109     0.6891    
 0.0021     64.93E-12  1.         0.32791   -0.32791    0.67209   
 0.0022     52.55E-12  1.         0.34451   -0.34451    0.65549   
 0.0023     41.19E-12  1.         0.36069   -0.36069    0.63931   
 0.0024     59.94E-12  1.         0.37648   -0.37648    0.62352   
 0.0025     65.1E-12   1.         0.39188   -0.39188    0.60812   
 0.0026     56.67E-12  1.         0.40689   -0.40689    0.59311   
 0.0027     49.16E-12  1.         0.42154   -0.42154    0.57846   
 0.0028     57.11E-12  1.         0.43582   -0.43582    0.56418   
 0.0029     65.94E-12  1.         0.44975   -0.44975    0.55025   
 0.003      61.08E-12  1.         0.46334   -0.46334    0.53666   
 0.0031     57.06E-12  1.         0.47659   -0.47659    0.52341   
 0.0032     68.4E-12   1.         0.48951   -0.48951    0.51049   
 0.0033     51.44E-12  1.         0.50211   -0.50211    0.49789   
 0.0034     35.26E-12  1.         0.51441   -0.51441    0.48559   
 0.0035     78.05E-12  1.         0.5264    -0.5264     0.4736    
 0.0036     63.37E-12  1.         0.53809   -0.53809    0.46191   
 0.0037     78.51E-12  1.         0.5495    -0.5495     0.4505    
 0.0038     65.25E-12  1.         0.56062   -0.56062    0.43938   
 0.0039     81.79E-12  1.         0.57147   -0.57147    0.42853   
 0.004      84.44E-12  1.         0.58205   -0.58205    0.41795   
 0.0041     87.74E-12  1.         0.59237   -0.59237    0.40763   
 0.0042     77.13E-12  1.         0.60244   -0.60244    0.39756   
 0.0043     81.69E-12  1.         0.61225   -0.61225    0.38775   
 0.0044     72.31E-12  1.         0.62183   -0.62183    0.37817   
 0.0045     63.52E-12  1.         0.63116   -0.63116    0.36884   
 0.0046     69.86E-12  1.         0.64027   -0.64027    0.35973   
 0.0047     62.2E-12   1.         0.64915   -0.64915    0.35085   
 0.0048     84.2E-12   1.         0.65782   -0.65782    0.34218   
 0.0049     77.63E-12  1.         0.66626   -0.66626    0.33374   
 0.005      57.03E-12  1.         0.6745    -0.6745     0.3255    
 0.0051     66.04E-12  1.         0.68254   -0.68254    0.31746   
 0.0052     75.55E-12  1.         0.69038   -0.69038    0.30962   
 0.0053     70.99E-12  1.         0.69803   -0.69803    0.30197   
 0.0054     81.45E-12  1.         0.70548   -0.70548    0.29452   
 0.0055     77.82E-12  1.         0.71275   -0.71275    0.28725   
 0.0056     74.65E-12  1.         0.71985   -0.71985    0.28015   
 0.0057     86.46E-12  1.         0.72676   -0.72676    0.27324   
 0.0058     69.59E-12  1.         0.73351   -0.73351    0.26649   
 0.0059     82.24E-12  1.         0.74009   -0.74009    0.25991   
 0.006      80.75E-12  1.         0.74651   -0.74651    0.25349   
 0.0061     65.1E-12   1.         0.75277   -0.75277    0.24723   
 0.0062     78.95E-12  1.         0.75887   -0.75887    0.24113   
 0.0063     93.17E-12  1.         0.76482   -0.76482    0.23518   
 0.0064     93.2E-12   1.         0.77063   -0.77063    0.22937   
 0.0065     64.49E-12  1.         0.7763    -0.7763     0.2237    
 0.0066     94.34E-12  1.         0.78182   -0.78182    0.21818   
 0.0067     95.42E-12  1.         0.78721   -0.78721    0.21279   
 0.0068     96.84E-12  1.         0.79246   -0.79246    0.20754   
 0.0069     98.58E-12  1.         0.79758   -0.79758    0.20242   
 0.007      86.09E-12  1.         0.80258   -0.80258    0.19742   
 0.0071     73.9E-12   1.         0.80746   -0.80746    0.19254   
 0.0072     76.57E-12  1.         0.81221   -0.81221    0.18779   
 0.0073     94.08E-12  1.         0.81685   -0.81685    0.18315   
 0.0074     82.77E-12  1.         0.82137   -0.82137    0.17863   
 0.0075     86.3E-12   1.         0.82578   -0.82578    0.17422   
 0.0076     104.6E-12  1.         0.83008   -0.83008    0.16992   
 0.0077     94.16E-12  1.         0.83428   -0.83428    0.16572   
 0.0078     69.38E-12  1.         0.83837   -0.83837    0.16163   
 0.0079     88.5E-12   1.         0.84236   -0.84236    0.15764   
 0.008      64.22E-12  1.         0.84625   -0.84625    0.15375   
 0.0081     83.84E-12  1.         0.85005   -0.85005    0.14995   
 0.0082     89.13E-12  1.         0.85375   -0.85375    0.14625   
 0.0083     80.1E-12   1.         0.85736   -0.85736    0.14264   
 0.0084     71.3E-12   1.         0.86088   -0.86088    0.13912   
 0.0085     91.82E-12  1.         0.86432   -0.86432    0.13568   
 0.0086     83.44E-12  1.         0.86767   -0.86767    0.13233   
 0.0087     89.82E-12  1.         0.87094   -0.87094    0.12906   
 0.0088     67.3E-12   1.         0.87412   -0.87412    0.12588   
 0.0089     74.09E-12  1.         0.87723   -0.87723    0.12277   
 0.009      81.06E-12  1.         0.88026   -0.88026    0.11974   
 0.0091     88.22E-12  1.         0.88322   -0.88322    0.11678   
 0.0092     81.01E-12  1.         0.8861    -0.8861     0.1139    
 0.0093     73.98E-12  1.         0.88892   -0.88892    0.11108   
 0.0094     67.13E-12  1.         0.89166   -0.89166    0.10834   
 0.0095     74.99E-12  1.         0.89433   -0.89433    0.10567   
 0.0096     68.47E-12  1.         0.89694   -0.89694    0.10306   
 0.0097     62.1E-12   1.         0.89949   -0.89949    0.10051   
 0.0098     55.9E-12   1.         0.90197   -0.90197    0.098031  
 0.0099     49.85E-12  1.         0.90439   -0.90439    0.095611  
 0.01       58.5E-12   1.         0.90675   -0.90675    0.09325   
 0.0101     67.3E-12   1.         0.90905   -0.90905    0.090947  
 0.0102     76.23E-12  1.         0.9113    -0.9113     0.088702  
 0.0103     70.76E-12  1.         0.91349   -0.91349    0.086512  
 0.0104     79.97E-12  1.         0.91562   -0.91562    0.084376  
 0.0105     89.31E-12  1.         0.91771   -0.91771    0.082292  
 0.0106     84.23E-12  1.         0.91974   -0.91974    0.08026   
 0.0107     79.28E-12  1.         0.92172   -0.92172    0.078279  
 0.0108     89.E-12    1.         0.92365   -0.92365    0.076346  
 0.0109     98.84E-12  1.         0.92554   -0.92554    0.074461  
 0.011      94.24E-12  1.         0.92738   -0.92738    0.072622  
 0.0111     40.57E-12  2.3326E-9  0.91683   -0.91683   -0.91683   
 0.0111    -917.E-15   2.2909E-9  0.91672   -0.91672   -0.91672   
 0.011101  -917.E-15   2.2906E-9  0.91662   -0.91662   -0.91662   
 0.011101  -916.E-15   2.2905E-9  0.91656   -0.91656   -0.91656   
 0.011101  -917.E-15   2.2903E-9  0.91649   -0.91649   -0.91649   
 0.0112    -895.E-15   2.2346E-9  0.89419   -0.89419   -0.89419   
 0.0113    -872.E-15   2.1794E-9  0.87211   -0.87211   -0.87211   
 0.0114    -851.E-15   2.1256E-9  0.85058   -0.85058   -0.85058   
 0.0115    -830.E-15   2.0731E-9  0.82957   -0.82957   -0.82957   
 0.0116    -809.E-15   2.0219E-9  0.80909   -0.80909   -0.80909   
 0.0117    -789.E-15   1.972E-9   0.78911   -0.78911   -0.78911   
 0.0118    -770.E-15   1.9233E-9  0.76963   -0.76963   -0.76963   
 0.0119    -751.E-15   1.8758E-9  0.75063   -0.75063   -0.75063   
 0.012     -732.E-15   1.8295E-9  0.73209   -0.73209   -0.73209   
 0.0121    -714.E-15   1.7843E-9  0.71402   -0.71402   -0.71402   
 0.0122    -697.E-15   1.7403E-9  0.69639   -0.69639   -0.69639   
 0.0123    -679.E-15   1.6973E-9  0.67919   -0.67919   -0.67919   
 0.0124    -663.E-15   1.6554E-9  0.66242   -0.66242   -0.66242   
 0.0125    -646.E-15   1.6145E-9  0.64606   -0.64606   -0.64606   
 0.0126    -630.E-15   1.5746E-9  0.63011   -0.63011   -0.63011   
 0.0127    -615.E-15   1.5358E-9  0.61455   -0.61455   -0.61455   
 0.0128    -600.E-15   1.4978E-9  0.59938   -0.59938   -0.59938   
 0.0129    -585.E-15   1.4609E-9  0.58458   -0.58458   -0.58458   
 0.013     -570.E-15   1.4248E-9  0.57015   -0.57015   -0.57015   
 0.0131    -556.E-15   1.3896E-9  0.55607   -0.55607   -0.55607   
 0.0132    -543.E-15   1.3553E-9  0.54234   -0.54234   -0.54234   
 0.0133    -529.E-15   1.3218E-9  0.52895   -0.52895   -0.52895   
 0.0134    -516.E-15   1.2892E-9  0.51589   -0.51589   -0.51589   
 0.0135    -503.E-15   1.2574E-9  0.50315   -0.50315   -0.50315   
 0.0136    -491.E-15   1.2263E-9  0.49073   -0.49073   -0.49073   
 0.0137    -479.E-15   1.196E-9   0.47861   -0.47861   -0.47861   
 0.0138    -467.E-15   1.1665E-9  0.46679   -0.46679   -0.46679   
 0.0139    -455.E-15   1.1377E-9  0.45527   -0.45527   -0.45527   
 0.014     -444.E-15   1.1096E-9  0.44402   -0.44402   -0.44402   
 0.0141    -433.E-15   1.0822E-9  0.43306   -0.43306   -0.43306   
 0.0142    -423.E-15   1.0555E-9  0.42237   -0.42237   -0.42237   
 0.0143    -412.E-15   1.0294E-9  0.41194   -0.41194   -0.41194   
 0.0144    -402.E-15   1.004E-9   0.40177   -0.40177   -0.40177   
 0.0145    -392.E-15   979.2E-12  0.39185   -0.39185   -0.39185   
 0.0146    -382.E-15   955.E-12   0.38217   -0.38217   -0.38217   
 0.0147    -373.E-15   931.5E-12  0.37274   -0.37274   -0.37274   
 0.0148    -364.E-15   908.5E-12  0.36353   -0.36353   -0.36353   
 0.0149    -355.E-15   886.E-12   0.35456   -0.35456   -0.35456   
 0.015     -346.E-15   864.2E-12  0.3458    -0.3458    -0.3458    
 0.0151    -337.E-15   842.8E-12  0.33726   -0.33726   -0.33726   
 0.0152    -329.E-15   822.E-12   0.32894   -0.32894   -0.32894   
 0.0153    -321.E-15   801.7E-12  0.32081   -0.32081   -0.32081   
 0.0154    -313.E-15   781.9E-12  0.31289   -0.31289   -0.31289   
 0.0155    -305.E-15   762.6E-12  0.30517   -0.30517   -0.30517   
 0.0156    -298.E-15   743.8E-12  0.29763   -0.29763   -0.29763   
 0.0157    -290.E-15   725.4E-12  0.29028   -0.29028   -0.29028   
 0.0158    -283.E-15   707.5E-12  0.28312   -0.28312   -0.28312   
 0.0159    -276.E-15   690.E-12   0.27613   -0.27613   -0.27613   
 0.016     -269.E-15   673.E-12   0.26931   -0.26931   -0.26931   
 0.0161    -263.E-15   656.4E-12  0.26266   -0.26266   -0.26266   
 0.0162    -256.E-15   640.2E-12  0.25617   -0.25617   -0.25617   
 0.0163    -250.E-15   624.4E-12  0.24985   -0.24985   -0.24985   
 0.0164    -244.E-15   609.E-12   0.24368   -0.24368   -0.24368   
 0.0165    -238.E-15   593.9E-12  0.23766   -0.23766   -0.23766   
 0.0166    -232.E-15   579.3E-12  0.23179   -0.23179   -0.23179   
 0.0167    -226.E-15   564.9E-12  0.22607   -0.22607   -0.22607   
 0.0168    -221.E-15   551.E-12   0.22049   -0.22049   -0.22049   
 0.0169    -215.E-15   537.4E-12  0.21504   -0.21504   -0.21504   
 0.017     -210.E-15   524.1E-12  0.20973   -0.20973   -0.20973   
 0.0171    -205.E-15   511.2E-12  0.20456   -0.20456   -0.20456   
 0.0172    -200.E-15   498.6E-12  0.1995    -0.1995    -0.1995    
 0.0173    -195.E-15   486.3E-12  0.19458   -0.19458   -0.19458   
 0.0174    -190.E-15   474.2E-12  0.18977   -0.18977   -0.18977   
 0.0175    -185.E-15   462.5E-12  0.18509   -0.18509   -0.18509   
 0.0176    -181.E-15   451.1E-12  0.18052   -0.18052   -0.18052   
 0.0177    -176.E-15   440.E-12   0.17606   -0.17606   -0.17606   
 0.0178    -172.E-15   429.1E-12  0.17171   -0.17171   -0.17171   
 0.0179    -168.E-15   418.5E-12  0.16747   -0.16747   -0.16747   
 0.018     -163.E-15   408.2E-12  0.16334   -0.16334   -0.16334   
 0.0181    -159.E-15   398.1E-12  0.15931   -0.15931   -0.15931   
 0.0182    -155.E-15   388.3E-12  0.15537   -0.15537   -0.15537   
 0.0183    -152.E-15   378.7E-12  0.15154   -0.15154   -0.15154   
 0.0184    -148.E-15   369.3E-12  0.14779   -0.14779   -0.14779   
 0.0185    -144.E-15   360.2E-12  0.14415   -0.14415   -0.14415   
 0.0186    -141.E-15   351.3E-12  0.14059   -0.14059   -0.14059   
 0.0187    -137.E-15   342.6E-12  0.13711   -0.13711   -0.13711   
 0.0188    -134.E-15   334.2E-12  0.13373   -0.13373   -0.13373   
 0.0189    -130.E-15   325.9E-12  0.13043   -0.13043   -0.13043   
 0.019     -127.E-15   317.9E-12  0.12721   -0.12721   -0.12721   
 0.0191    -124.E-15   310.E-12   0.12407   -0.12407   -0.12407   
 0.0192    -121.E-15   302.4E-12  0.121     -0.121     -0.121     
 0.0193    -118.E-15   294.9E-12  0.11801   -0.11801   -0.11801   
 0.0194    -115.E-15   287.6E-12  0.1151    -0.1151    -0.1151    
 0.0195    -112.E-15   280.5E-12  0.11226   -0.11226   -0.11226   
 0.0196    -110.E-15   273.6E-12  0.10949   -0.10949   -0.10949   
 0.0197    -107.E-15   266.9E-12  0.10678   -0.10678   -0.10678   
 0.0198    -104.E-15   260.3E-12  0.10415   -0.10415   -0.10415   
 0.0199    -102.E-15   253.8E-12  0.10158   -0.10158   -0.10158   
 0.02      -99.E-15    247.6E-12  0.099067  -0.099067  -0.099067  
vn2= 0.1151663
